
T0B70 000:381 SEGGER J-Link V4.96d Log File (0001ms, 0289ms total)
T0B70 000:381 DLL Compiled: Jan 29 2015 11:45:37 (0001ms, 0289ms total)
T0B70 000:381 Logging started @ 2017-11-19 17:49 (0001ms, 0289ms total)
T0B70 000:382 JLINK_SetWarnOutHandler(...) (0001ms, 0290ms total)
T0B70 000:383 JLINK_OpenEx(...)
Firmware: J-Link ARM V8 compiled Nov 28 2014 13:44:46
Hardware: V8.00
S/N: 304423265
Feature(s): RDI,FlashDL,FlashBP,JFlash,GDBFULL  returns O.K. (0282ms, 0572ms total)
T0B70 000:665 JLINK_SetErrorOutHandler(...) (0000ms, 0572ms total)
T0B70 000:665 JLINK_ExecCommand("ProjectFile = "E:\gitHub\BlackAnt_Robort_v3.0\project\Nucleof103rb\JLinkSettings.ini"", ...)  returns 0x00 (0002ms, 0574ms total)
T0B70 000:667 JLINK_ExecCommand("Device = STM32F103RB", ...)Device "STM32F103RB" selected.  returns 0x00 (0002ms, 0576ms total)
T0B70 000:669 JLINK_ExecCommand("DisableConnectionTimeout", ...)  returns 0x01 (0000ms, 0576ms total)
T0B70 000:669 JLINK_GetHardwareVersion()  returns 0x13880 (0000ms, 0576ms total)
T0B70 000:669 JLINK_GetDLLVersion()  returns 49604 (0000ms, 0576ms total)
T0B70 000:669 JLINK_GetFirmwareString(...) (0000ms, 0576ms total)
T0B70 000:670 JLINK_GetDLLVersion()  returns 49604 (0000ms, 0576ms total)
T0B70 000:670 JLINK_GetCompileDateTime() (0001ms, 0577ms total)
T0B70 000:671 JLINK_GetFirmwareString(...) (0000ms, 0577ms total)
T0B70 000:671 JLINK_GetHardwareVersion()  returns 0x13880 (0001ms, 0578ms total)
T0B70 000:673 JLINK_TIF_Select(JLINKARM_TIF_SWD)  returns 0x00 (0002ms, 0580ms total)
T0B70 000:675 JLINK_SetSpeed(1000) (0000ms, 0580ms total)
T0B70 000:675 JLINK_GetId() >0x108 TIF>Found SWD-DP with ID 0x1BA01477 >0x0D TIF> >0x28 TIF> >0x0D TIF> >0x28 TIF> >0x0D TIF> >0x21 TIF> >0x0D TIF> >0x28 TIF> >0x0D TIF> >0x28 TIF> >0x0D TIF> >0x28 TIF> >0x0D TIF> >0x21 TIF> >0x0D TIF> >0x21 TIF> >0x0D TIF> >0x28 TIF> >0x0D TIF> >0x21 TIF> >0x0D TIF> >0x21 TIF> >0x108 TIF>Found SWD-DP with ID 0x1BA01477 >0x0D TIF> >0x21 TIF> >0x0D TIF> >0x28 TIF> >0x0D TIF> >0x28 TIF> >0x0D TIF> >0x21 TIF> >0x0D TIF> >0x28 TIF> >0x0D TIF> >0x21 TIF> >0x0D TIF> >0x21 TIF>
 >0x0D TIF> >0x21 TIF> >0x0D TIF> >0x21 TIF> >0x0D TIF> >0x28 TIF> >0x0D TIF> >0x28 TIF> >0x0D TIF> >0x21 TIF> >0x0D TIF> >0x28 TIF> >0x0D TIF> >0x28 TIF> >0x0D TIF> >0x28 TIF> >0x0D TIF> >0x21 TIF> >0x0D TIF> >0x21 TIF> >0x0D TIF> >0x28 TIF> >0x0D TIF> >0x21 TIF> >0x0D TIF> >0x21 TIF>Found Cortex-M3 r1p1, Little endian. -- CPU_WriteMem(4 bytes @ 0xE0002000) -- CPU_ReadMem(4 bytes @ 0xE000EDF0) -- CPU_ReadMem(4 bytes @ 0xE0002000)FPUnit: 6 code (BP) slots and 2 literal slots
 -- CPU_ReadMem(4 bytes @ 0xE000EDFC) -- CPU_ReadMem(4 bytes @ 0xE0001000) -- CPU_WriteMem(4 bytes @ 0xE0001000) -- CPU_ReadMem(4 bytes @ 0xE000ED88) -- CPU_WriteMem(4 bytes @ 0xE000ED88) -- CPU_ReadMem(4 bytes @ 0xE000ED88) -- CPU_WriteMem(4 bytes @ 0xE000ED88) -- CPU_ReadMem(4 bytes @ 0xE00FF010)TPIU fitted. -- CPU_ReadMem(4 bytes @ 0xE00FF014)ETM fitted. -- CPU_ReadMem(4 bytes @ 0xE00FF018) >0x0D TIF> >0x21 TIF>  returns 0x1BA01477 (0039ms, 0619ms total)
T0B70 000:714 JLINK_GetDLLVersion()  returns 49604 (0000ms, 0619ms total)
T0B70 000:714 JLINK_CORE_GetFound()  returns 0x30000FF (0000ms, 0619ms total)
T0B70 000:714 JLINK_GetDebugInfo(0x100) -- Value=0xE00FF003  returns 0x00 (0000ms, 0619ms total)
T0B70 000:714 JLINK_ReadMem (0xE00FF000, 0x0020 Bytes, ...) -- CPU is running -- CPU_ReadMem(32 bytes @ 0xE00FF000) - Data: 03 F0 F0 FF 03 20 F0 FF 03 30 F0 FF 03 10 F0 FF ...  returns 0x00 (0002ms, 0621ms total)
T0B70 000:716 JLINK_ReadMem (0xE000EFF0, 0x0010 Bytes, ...) -- CPU is running -- CPU_ReadMem(16 bytes @ 0xE000EFF0) - Data: 0D 00 00 00 E0 00 00 00 05 00 00 00 B1 00 00 00  returns 0x00 (0000ms, 0621ms total)
T0B70 000:716 JLINK_ReadMem (0xE000EFD0, 0x0020 Bytes, ...) -- CPU is running -- CPU_ReadMem(32 bytes @ 0xE000EFD0) - Data: 04 00 00 00 00 00 00 00 00 00 00 00 00 00 00 00 ...  returns 0x00 (0001ms, 0622ms total)
T0B70 000:717 JLINK_ReadMem (0xE0001FF0, 0x0010 Bytes, ...) -- CPU is running -- CPU_ReadMem(16 bytes @ 0xE0001FF0) - Data: 0D 00 00 00 E0 00 00 00 05 00 00 00 B1 00 00 00  returns 0x00 (0001ms, 0623ms total)
T0B70 000:718 JLINK_ReadMem (0xE0001FD0, 0x0020 Bytes, ...) -- CPU is running -- CPU_ReadMem(32 bytes @ 0xE0001FD0) - Data: 04 00 00 00 00 00 00 00 00 00 00 00 00 00 00 00 ...  returns 0x00 (0001ms, 0624ms total)
T0B70 000:719 JLINK_ReadMem (0xE0002FF0, 0x0010 Bytes, ...) -- CPU is running -- CPU_ReadMem(16 bytes @ 0xE0002FF0) - Data: 0D 00 00 00 E0 00 00 00 05 00 00 00 B1 00 00 00  returns 0x00 (0001ms, 0625ms total)
T0B70 000:720 JLINK_ReadMem (0xE0002FD0, 0x0020 Bytes, ...) -- CPU is running -- CPU_ReadMem(32 bytes @ 0xE0002FD0) - Data: 04 00 00 00 00 00 00 00 00 00 00 00 00 00 00 00 ...  returns 0x00 (0001ms, 0626ms total)
T0B70 000:721 JLINK_ReadMem (0xE0000FF0, 0x0010 Bytes, ...) -- CPU is running -- CPU_ReadMem(16 bytes @ 0xE0000FF0) - Data: 0D 00 00 00 E0 00 00 00 05 00 00 00 B1 00 00 00  returns 0x00 (0001ms, 0627ms total)
T0B70 000:722 JLINK_ReadMem (0xE0000FD0, 0x0020 Bytes, ...) -- CPU is running -- CPU_ReadMem(32 bytes @ 0xE0000FD0) - Data: 04 00 00 00 00 00 00 00 00 00 00 00 00 00 00 00 ...  returns 0x00 (0001ms, 0628ms total)
T0B70 000:723 JLINK_ReadMem (0xE0040FF0, 0x0010 Bytes, ...) -- CPU is running -- CPU_ReadMem(16 bytes @ 0xE0040FF0) - Data: 0D 00 00 00 90 00 00 00 05 00 00 00 B1 00 00 00  returns 0x00 (0001ms, 0629ms total)
T0B70 000:724 JLINK_ReadMem (0xE0040FD0, 0x0020 Bytes, ...) -- CPU is running -- CPU_ReadMem(32 bytes @ 0xE0040FD0) - Data: 04 00 00 00 00 00 00 00 00 00 00 00 00 00 00 00 ...  returns 0x00 (0001ms, 0630ms total)
T0B70 000:725 JLINK_ReadMem (0xE0041FF0, 0x0010 Bytes, ...) -- CPU is running -- CPU_ReadMem(16 bytes @ 0xE0041FF0) - Data: 0D 00 00 00 90 00 00 00 05 00 00 00 B1 00 00 00  returns 0x00 (0001ms, 0631ms total)
T0B70 000:726 JLINK_ReadMem (0xE0041FD0, 0x0020 Bytes, ...) -- CPU is running -- CPU_ReadMem(32 bytes @ 0xE0041FD0) - Data: 04 00 00 00 00 00 00 00 00 00 00 00 00 00 00 00 ...  returns 0x00 (0001ms, 0632ms total)
T0B70 000:727 JLINK_ReadMemU32(0xE000ED00, 0x0001 Items, ...) -- CPU is running -- CPU_ReadMem(4 bytes @ 0xE000ED00) - Data: 31 C2 1F 41  returns 0x01 (0001ms, 0633ms total)
T0B70 000:728 JLINK_SetResetType(JLINKARM_RESET_TYPE_NORMAL)  returns JLINKARM_RESET_TYPE_NORMAL (0000ms, 0633ms total)
T0B70 000:728 JLINK_Reset() -- CPU is running -- CPU_WriteMem(4 bytes @ 0xE000EDF0) -- CPU is running -- CPU_WriteMem(4 bytes @ 0xE000EDFC) >0x35 TIF> -- CPU is running -- CPU_WriteMem(4 bytes @ 0xE000ED0C) -- CPU is running -- CPU_ReadMem(4 bytes @ 0xE000EDF0) -- CPU is running -- CPU_ReadMem(4 bytes @ 0xE000EDF0) -- CPU is running -- CPU_WriteMem(4 bytes @ 0xE000EDF0) -- CPU is running -- CPU_WriteMem(4 bytes @ 0xE000EDFC) -- CPU is running -- CPU_ReadMem(4 bytes @ 0xE000EDF0)
 -- CPU_WriteMem(4 bytes @ 0xE0002000) -- CPU_ReadMem(4 bytes @ 0xE000EDFC) -- CPU_ReadMem(4 bytes @ 0xE0001000) (0023ms, 0656ms total)
T0B70 000:751 JLINK_ReadReg(R15 (PC))  returns 0x08000100 (0000ms, 0656ms total)
T0B70 000:751 JLINK_ReadReg(XPSR)  returns 0x01000000 (0000ms, 0656ms total)
T0B70 000:751 JLINK_Halt()  returns 0x00 (0000ms, 0656ms total)
T0B70 000:751 JLINK_IsHalted()  returns TRUE (0000ms, 0656ms total)
T0B70 000:751 JLINK_ReadMemU32(0xE000EDF0, 0x0001 Items, ...) -- CPU_ReadMem(4 bytes @ 0xE000EDF0) - Data: 03 00 03 00  returns 0x01 (0000ms, 0656ms total)
T0B70 000:751 JLINK_WriteU32(0xE000EDF0, 0xA05F0003) -- CPU_WriteMem(4 bytes @ 0xE000EDF0)  returns 0x00 (0001ms, 0657ms total)
T0B70 000:752 JLINK_WriteU32(0xE000EDFC, 0x01000000) -- CPU_WriteMem(4 bytes @ 0xE000EDFC)  returns 0x00 (0000ms, 0657ms total)
T0B70 000:753 JLINK_GetHWStatus(...)  returns 0x00 (0000ms, 0657ms total)
T0B70 000:753 JLINK_GetNumBPUnits(Type = 0xFFFFFF00)  returns 0x06 (0000ms, 0657ms total)
T0B70 000:753 JLINK_GetNumBPUnits(Type = 0xF0)  returns 0x2000 (0000ms, 0657ms total)
T0B70 000:753 JLINK_GetNumWPUnits()  returns 0x04 (0000ms, 0657ms total)
T0B70 000:754 JLINK_GetSpeed()  returns 0x3E8 (0000ms, 0657ms total)
T0B70 000:754 JLINK_ReadMemU32(0xE000E004, 0x0001 Items, ...) -- CPU_ReadMem(4 bytes @ 0xE000E004) - Data: 01 00 00 00  returns 0x01 (0001ms, 0658ms total)
T0B70 000:755 JLINK_ReadMemU32(0xE000E004, 0x0001 Items, ...) -- CPU_ReadMem(4 bytes @ 0xE000E004) - Data: 01 00 00 00  returns 0x01 (0000ms, 0658ms total)
T0B70 000:755 JLINK_WriteMem(0xE0001000, 0x001C Bytes, ...) - Data: 01 00 00 00 00 00 00 00 00 00 00 00 00 00 00 00 ... -- CPU_WriteMem(28 bytes @ 0xE0001000)  returns 0x1C (0002ms, 0660ms total)
T0B70 000:757 JLINK_ReadMem (0xE0001000, 0x001C Bytes, ...) -- CPU_ReadMem(28 bytes @ 0xE0001000) - Data: 01 00 00 40 00 00 00 00 00 00 00 00 00 00 00 00 ...  returns 0x00 (0001ms, 0661ms total)
T0B70 000:758 JLINK_ReadReg(R15 (PC))  returns 0x08000100 (0000ms, 0661ms total)
T0B70 000:758 JLINK_ReadReg(XPSR)  returns 0x01000000 (0000ms, 0661ms total)
T0B70 000:850 JLINK_SetResetType(JLINKARM_RESET_TYPE_NORMAL)  returns JLINKARM_RESET_TYPE_NORMAL (0000ms, 0661ms total)
T0B70 000:850 JLINK_Reset() -- CPU_WriteMem(4 bytes @ 0xE000EDF0) -- CPU_WriteMem(4 bytes @ 0xE000EDFC) >0x35 TIF> -- CPU_WriteMem(4 bytes @ 0xE000ED0C) -- CPU_ReadMem(4 bytes @ 0xE000EDF0) -- CPU_ReadMem(4 bytes @ 0xE000EDF0) -- CPU_WriteMem(4 bytes @ 0xE000EDF0) -- CPU_WriteMem(4 bytes @ 0xE000EDFC) -- CPU is running -- CPU_ReadMem(4 bytes @ 0xE000EDF0) -- CPU_WriteMem(4 bytes @ 0xE0002000) -- CPU_ReadMem(4 bytes @ 0xE000EDFC) -- CPU_ReadMem(4 bytes @ 0xE0001000) (0024ms, 0685ms total)
T0B70 000:875 JLINK_ReadReg(R15 (PC))  returns 0x08000100 (0000ms, 0685ms total)
T0B70 000:875 JLINK_ReadReg(XPSR)  returns 0x01000000 (0000ms, 0685ms total)
T0B70 000:875 JLINK_ReadMem (0x08000100, 0x003C Bytes, ...) -- CPU_ReadMem(64 bytes @ 0x08000100) -- Updating C cache (64 bytes @ 0x08000100) -- Read from C cache (60 bytes @ 0x08000100) - Data: 06 48 80 47 06 48 00 47 FE E7 FE E7 FE E7 FE E7 ...  returns 0x00 (0002ms, 0687ms total)
T0B70 003:243 JLINK_ReadMem (0x200020C0, 0x0100 Bytes, ...) -- CPU_ReadMem(256 bytes @ 0x200020C0) -- Updating C cache (256 bytes @ 0x200020C0) -- Read from C cache (256 bytes @ 0x200020C0) - Data: 00 00 00 00 00 00 00 00 00 00 00 00 00 00 00 00 ...  returns 0x00 (0005ms, 0692ms total)
T2B14 003:304 JLINK_SetBPEx(Addr = 0x08006798, Type = 0xFFFFFFF2)  returns 0x00000001 (0000ms, 0692ms total)
T2B14 003:304 JLINK_SetBPEx(Addr = 0x08000E48, Type = 0xFFFFFFF2)  returns 0x00000002 (0000ms, 0692ms total)
T2B14 003:304 JLINK_SetBPEx(Addr = 0x08000F36, Type = 0xFFFFFFF2)  returns 0x00000003 (0000ms, 0692ms total)
T2B14 003:304 JLINK_SetBPEx(Addr = 0x08000E82, Type = 0xFFFFFFF2)  returns 0x00000004 (0001ms, 0693ms total)
T2B14 003:305 JLINK_SetBPEx(Addr = 0x08003140, Type = 0xFFFFFFF2)  returns 0x00000005 (0000ms, 0693ms total)
T2B14 003:305 JLINK_Go() -- CPU_WriteMem(4 bytes @ 0xE0002000) -- CPU_WriteMem(4 bytes @ 0xE0002000) -- CPU_WriteMem(4 bytes @ 0xE0002000) -- CPU_WriteMem(4 bytes @ 0xE0002000) -- CPU_WriteMem(4 bytes @ 0xE0002000) -- CPU_WriteMem(4 bytes @ 0xE0002008) -- CPU_WriteMem(4 bytes @ 0xE000200C) -- CPU_WriteMem(4 bytes @ 0xE0002010) -- CPU_WriteMem(4 bytes @ 0xE0002014) -- CPU_WriteMem(4 bytes @ 0xE0002018) -- CPU_WriteMem(4 bytes @ 0xE000201C) -- CPU_WriteMem(4 bytes @ 0xE0001004) (0009ms, 0702ms total)
T2B14 003:415 JLINK_IsHalted()  returns TRUE (0004ms, 0706ms total)
T2B14 003:419 JLINK_Halt()  returns 0x00 (0000ms, 0702ms total)
T2B14 003:419 JLINK_IsHalted()  returns TRUE (0000ms, 0702ms total)
T2B14 003:419 JLINK_IsHalted()  returns TRUE (0000ms, 0702ms total)
T2B14 003:419 JLINK_IsHalted()  returns TRUE (0000ms, 0702ms total)
T2B14 003:419 JLINK_ReadReg(R15 (PC))  returns 0x08006798 (0000ms, 0702ms total)
T2B14 003:419 JLINK_ReadReg(XPSR)  returns 0x61000000 (0000ms, 0702ms total)
T2B14 003:419 JLINK_ClrBPEx(BPHandle = 0x00000001)  returns 0x00 (0001ms, 0703ms total)
T2B14 003:420 JLINK_ClrBPEx(BPHandle = 0x00000002)  returns 0x00 (0000ms, 0703ms total)
T2B14 003:420 JLINK_ClrBPEx(BPHandle = 0x00000003)  returns 0x00 (0000ms, 0703ms total)
T2B14 003:420 JLINK_ClrBPEx(BPHandle = 0x00000004)  returns 0x00 (0000ms, 0703ms total)
T2B14 003:420 JLINK_ClrBPEx(BPHandle = 0x00000005)  returns 0x00 (0000ms, 0703ms total)
T2B14 003:420 JLINK_ReadMemU32(0xE000ED30, 0x0001 Items, ...) -- CPU_ReadMem(4 bytes @ 0xE000ED30) - Data: 03 00 00 00  returns 0x01 (0000ms, 0703ms total)
T2B14 003:420 JLINK_ReadMemU32(0xE0001028, 0x0001 Items, ...) -- CPU_ReadMem(4 bytes @ 0xE0001028) - Data: 00 00 00 00  returns 0x01 (0001ms, 0704ms total)
T2B14 003:421 JLINK_ReadMemU32(0xE0001038, 0x0001 Items, ...) -- CPU_ReadMem(4 bytes @ 0xE0001038) - Data: 00 02 00 00  returns 0x01 (0001ms, 0705ms total)
T2B14 003:422 JLINK_ReadMemU32(0xE0001048, 0x0001 Items, ...) -- CPU_ReadMem(4 bytes @ 0xE0001048) - Data: 00 00 00 00  returns 0x01 (0000ms, 0705ms total)
T2B14 003:422 JLINK_ReadMemU32(0xE0001058, 0x0001 Items, ...) -- CPU_ReadMem(4 bytes @ 0xE0001058) - Data: 00 00 00 00  returns 0x01 (0001ms, 0706ms total)
T2B14 003:423 JLINK_ReadReg(R0)  returns 0x08006799 (0000ms, 0706ms total)
T2B14 003:423 JLINK_ReadReg(R1)  returns 0x20002D80 (0000ms, 0706ms total)
T2B14 003:423 JLINK_ReadReg(R2)  returns 0x00000000 (0000ms, 0706ms total)
T2B14 003:423 JLINK_ReadReg(R3)  returns 0x08005D65 (0000ms, 0706ms total)
T2B14 003:423 JLINK_ReadReg(R4)  returns 0x08007D3C (0000ms, 0706ms total)
T2B14 003:423 JLINK_ReadReg(R5)  returns 0x08007D3C (0000ms, 0706ms total)
T2B14 003:423 JLINK_ReadReg(R6)  returns 0x08007A00 (0000ms, 0706ms total)
T2B14 003:423 JLINK_ReadReg(R7)  returns 0x000000E8 (0000ms, 0706ms total)
T2B14 003:423 JLINK_ReadReg(R8)  returns 0x00000000 (0000ms, 0706ms total)
T2B14 003:423 JLINK_ReadReg(R9)  returns 0x20001F8C (0000ms, 0706ms total)
T2B14 003:423 JLINK_ReadReg(R10)  returns 0x00000052 (0000ms, 0706ms total)
T2B14 003:423 JLINK_ReadReg(R11)  returns 0x00000054 (0000ms, 0706ms total)
T2B14 003:423 JLINK_ReadReg(R12)  returns 0x12121212 (0001ms, 0707ms total)
T2B14 003:424 JLINK_ReadReg(R13 (SP))  returns 0x20002D80 (0000ms, 0707ms total)
T2B14 003:424 JLINK_ReadReg(R14)  returns 0x08000991 (0000ms, 0707ms total)
T2B14 003:424 JLINK_ReadReg(R15 (PC))  returns 0x08006798 (0000ms, 0707ms total)
T2B14 003:424 JLINK_ReadReg(XPSR)  returns 0x61000000 (0000ms, 0707ms total)
T2B14 003:424 JLINK_ReadReg(MSP)  returns 0x20002D80 (0000ms, 0707ms total)
T2B14 003:424 JLINK_ReadReg(PSP)  returns 0x20001EF8 (0000ms, 0707ms total)
T2B14 003:424 JLINK_ReadReg(CFBP)  returns 0x00000000 (0000ms, 0707ms total)
T2B14 005:013 JLINK_SetBPEx(Addr = 0x08000E48, Type = 0xFFFFFFF2)  returns 0x00000006 (0001ms, 0708ms total)
T2B14 005:014 JLINK_SetBPEx(Addr = 0x08000F36, Type = 0xFFFFFFF2)  returns 0x00000007 (0000ms, 0708ms total)
T2B14 005:014 JLINK_SetBPEx(Addr = 0x08000E82, Type = 0xFFFFFFF2)  returns 0x00000008 (0000ms, 0708ms total)
T2B14 005:014 JLINK_SetBPEx(Addr = 0x08003140, Type = 0xFFFFFFF2)  returns 0x00000009 (0000ms, 0708ms total)
T2B14 005:014 JLINK_Go() -- CPU_WriteMem(4 bytes @ 0xE0002000) -- CPU_WriteMem(4 bytes @ 0xE0002000) -- CPU_WriteMem(4 bytes @ 0xE0002000) -- CPU_WriteMem(4 bytes @ 0xE0002000) -- CPU_WriteMem(4 bytes @ 0xE0002008) -- CPU_WriteMem(4 bytes @ 0xE000200C) -- CPU_WriteMem(4 bytes @ 0xE0002010) -- CPU_WriteMem(4 bytes @ 0xE0002014) -- CPU_WriteMem(4 bytes @ 0xE0002018) (0009ms, 0717ms total)
T2B14 005:123 JLINK_IsHalted()  returns TRUE (0005ms, 0722ms total)
T2B14 005:128 JLINK_Halt()  returns 0x00 (0000ms, 0717ms total)
T2B14 005:128 JLINK_IsHalted()  returns TRUE (0001ms, 0718ms total)
T2B14 005:129 JLINK_IsHalted()  returns TRUE (0000ms, 0717ms total)
T2B14 005:129 JLINK_IsHalted()  returns TRUE (0000ms, 0717ms total)
T2B14 005:129 JLINK_ReadReg(R15 (PC))  returns 0x08000E48 (0000ms, 0717ms total)
T2B14 005:129 JLINK_ReadReg(XPSR)  returns 0x41000000 (0000ms, 0717ms total)
T2B14 005:129 JLINK_ClrBPEx(BPHandle = 0x00000006)  returns 0x00 (0000ms, 0717ms total)
T2B14 005:129 JLINK_ClrBPEx(BPHandle = 0x00000007)  returns 0x00 (0000ms, 0717ms total)
T2B14 005:129 JLINK_ClrBPEx(BPHandle = 0x00000008)  returns 0x00 (0000ms, 0717ms total)
T2B14 005:129 JLINK_ClrBPEx(BPHandle = 0x00000009)  returns 0x00 (0000ms, 0717ms total)
T2B14 005:129 JLINK_ReadMemU32(0xE000ED30, 0x0001 Items, ...) -- CPU_ReadMem(4 bytes @ 0xE000ED30) - Data: 03 00 00 00  returns 0x01 (0001ms, 0718ms total)
T2B14 005:130 JLINK_ReadMemU32(0xE0001028, 0x0001 Items, ...) -- CPU_ReadMem(4 bytes @ 0xE0001028) - Data: 00 00 00 00  returns 0x01 (0001ms, 0719ms total)
T2B14 005:131 JLINK_ReadMemU32(0xE0001038, 0x0001 Items, ...) -- CPU_ReadMem(4 bytes @ 0xE0001038) - Data: 00 02 00 00  returns 0x01 (0001ms, 0720ms total)
T2B14 005:132 JLINK_ReadMemU32(0xE0001048, 0x0001 Items, ...) -- CPU_ReadMem(4 bytes @ 0xE0001048) - Data: 00 00 00 00  returns 0x01 (0002ms, 0722ms total)
T2B14 005:134 JLINK_ReadMemU32(0xE0001058, 0x0001 Items, ...) -- CPU_ReadMem(4 bytes @ 0xE0001058) - Data: 00 00 00 00  returns 0x01 (0001ms, 0723ms total)
T2B14 005:135 JLINK_ReadReg(R0)  returns 0x00000000 (0000ms, 0723ms total)
T2B14 005:135 JLINK_ReadReg(R1)  returns 0x2000002C (0000ms, 0723ms total)
T2B14 005:135 JLINK_ReadReg(R2)  returns 0x20000020 (0000ms, 0723ms total)
T2B14 005:135 JLINK_ReadReg(R3)  returns 0x03030303 (0000ms, 0723ms total)
T2B14 005:135 JLINK_ReadReg(R4)  returns 0x2000002C (0000ms, 0723ms total)
T2B14 005:135 JLINK_ReadReg(R5)  returns 0x00000000 (0000ms, 0723ms total)
T2B14 005:135 JLINK_ReadReg(R6)  returns 0x00000000 (0000ms, 0723ms total)
T2B14 005:135 JLINK_ReadReg(R7)  returns 0x00000048 (0000ms, 0723ms total)
T2B14 005:136 JLINK_ReadReg(R8)  returns 0x00000043 (0000ms, 0724ms total)
T2B14 005:136 JLINK_ReadReg(R9)  returns 0x0000004F (0000ms, 0724ms total)
T2B14 005:136 JLINK_ReadReg(R10)  returns 0x00000052 (0000ms, 0724ms total)
T2B14 005:136 JLINK_ReadReg(R11)  returns 0x00000054 (0000ms, 0724ms total)
T2B14 005:136 JLINK_ReadReg(R12)  returns 0x12121212 (0000ms, 0724ms total)
T2B14 005:136 JLINK_ReadReg(R13 (SP))  returns 0x200009C8 (0000ms, 0724ms total)
T2B14 005:136 JLINK_ReadReg(R14)  returns 0x080018D1 (0000ms, 0724ms total)
T2B14 005:136 JLINK_ReadReg(R15 (PC))  returns 0x08000E48 (0000ms, 0724ms total)
T2B14 005:136 JLINK_ReadReg(XPSR)  returns 0x41000000 (0000ms, 0724ms total)
T2B14 005:136 JLINK_ReadReg(MSP)  returns 0x20002D40 (0000ms, 0724ms total)
T2B14 005:136 JLINK_ReadReg(PSP)  returns 0x200009C8 (0000ms, 0724ms total)
T2B14 005:136 JLINK_ReadReg(CFBP)  returns 0x02000001 (0000ms, 0724ms total)
T0B70 005:148 JLINK_ReadMem (0x08000E48, 0x003C Bytes, ...) -- CPU_ReadMem(128 bytes @ 0x08000E40) -- Updating C cache (128 bytes @ 0x08000E40) -- Read from C cache (60 bytes @ 0x08000E48) - Data: 05 EB 85 01 06 4A 02 EB C1 01 08 69 05 F0 B2 FC ...  returns 0x00 (0003ms, 0727ms total)
T2B14 005:876 JLINK_Step() -- Read from C cache (2 bytes @ 0x08000E48) -- CPU_ReadMem(4 bytes @ 0xE0001004) -- Read from C cache (2 bytes @ 0x08000E4A) -- Not simulated -- CPU_WriteMem(4 bytes @ 0xE0002008) -- CPU_WriteMem(4 bytes @ 0xE000200C) -- CPU_WriteMem(4 bytes @ 0xE0002010) -- CPU_WriteMem(4 bytes @ 0xE0002014)  returns 0x00 (0011ms, 0738ms total)
T2B14 005:887 JLINK_ReadReg(R15 (PC))  returns 0x08000E4C (0000ms, 0738ms total)
T2B14 005:887 JLINK_ReadReg(XPSR)  returns 0x41000000 (0000ms, 0738ms total)
T2B14 005:887 JLINK_SetBPEx(Addr = 0x08000E48, Type = 0xFFFFFFF2)  returns 0x0000000A (0000ms, 0738ms total)
T2B14 005:887 JLINK_SetBPEx(Addr = 0x08000F36, Type = 0xFFFFFFF2)  returns 0x0000000B (0000ms, 0738ms total)
T2B14 005:887 JLINK_SetBPEx(Addr = 0x08000E82, Type = 0xFFFFFFF2)  returns 0x0000000C (0000ms, 0738ms total)
T2B14 005:887 JLINK_SetBPEx(Addr = 0x08003140, Type = 0xFFFFFFF2)  returns 0x0000000D (0000ms, 0738ms total)
T2B14 005:887 JLINK_Go() -- CPU_WriteMem(4 bytes @ 0xE0002000) -- CPU_WriteMem(4 bytes @ 0xE0002000) -- CPU_WriteMem(4 bytes @ 0xE0002000) -- CPU_WriteMem(4 bytes @ 0xE0002000) -- CPU_WriteMem(4 bytes @ 0xE0002008) -- CPU_WriteMem(4 bytes @ 0xE000200C) -- CPU_WriteMem(4 bytes @ 0xE0002010) -- CPU_WriteMem(4 bytes @ 0xE0002014) (0007ms, 0745ms total)
T2B14 005:995 JLINK_IsHalted()  returns TRUE (0005ms, 0750ms total)
T2B14 006:000 JLINK_Halt()  returns 0x00 (0000ms, 0745ms total)
T2B14 006:000 JLINK_IsHalted()  returns TRUE (0001ms, 0746ms total)
T2B14 006:001 JLINK_IsHalted()  returns TRUE (0000ms, 0745ms total)
T2B14 006:001 JLINK_IsHalted()  returns TRUE (0000ms, 0745ms total)
T2B14 006:001 JLINK_ReadReg(R15 (PC))  returns 0x08000E82 (0000ms, 0745ms total)
T2B14 006:001 JLINK_ReadReg(XPSR)  returns 0x21000000 (0000ms, 0745ms total)
T2B14 006:001 JLINK_ClrBPEx(BPHandle = 0x0000000A)  returns 0x00 (0000ms, 0745ms total)
T2B14 006:001 JLINK_ClrBPEx(BPHandle = 0x0000000B)  returns 0x00 (0000ms, 0745ms total)
T2B14 006:001 JLINK_ClrBPEx(BPHandle = 0x0000000C)  returns 0x00 (0000ms, 0745ms total)
T2B14 006:001 JLINK_ClrBPEx(BPHandle = 0x0000000D)  returns 0x00 (0000ms, 0745ms total)
T2B14 006:001 JLINK_ReadMemU32(0xE000ED30, 0x0001 Items, ...) -- CPU_ReadMem(4 bytes @ 0xE000ED30) - Data: 03 00 00 00  returns 0x01 (0001ms, 0746ms total)
T2B14 006:002 JLINK_ReadMemU32(0xE0001028, 0x0001 Items, ...) -- CPU_ReadMem(4 bytes @ 0xE0001028) - Data: 00 00 00 00  returns 0x01 (0001ms, 0747ms total)
T2B14 006:003 JLINK_ReadMemU32(0xE0001038, 0x0001 Items, ...) -- CPU_ReadMem(4 bytes @ 0xE0001038) - Data: 00 02 00 00  returns 0x01 (0001ms, 0748ms total)
T2B14 006:004 JLINK_ReadMemU32(0xE0001048, 0x0001 Items, ...) -- CPU_ReadMem(4 bytes @ 0xE0001048) - Data: 00 00 00 00  returns 0x01 (0001ms, 0749ms total)
T2B14 006:005 JLINK_ReadMemU32(0xE0001058, 0x0001 Items, ...) -- CPU_ReadMem(4 bytes @ 0xE0001058) - Data: 00 00 00 00  returns 0x01 (0001ms, 0750ms total)
T2B14 006:006 JLINK_ReadReg(R0)  returns 0x00000001 (0001ms, 0751ms total)
T2B14 006:007 JLINK_ReadReg(R1)  returns 0x00000108 (0000ms, 0751ms total)
T2B14 006:007 JLINK_ReadReg(R2)  returns 0x200001AC (0000ms, 0751ms total)
T2B14 006:007 JLINK_ReadReg(R3)  returns 0x20001E94 (0000ms, 0751ms total)
T2B14 006:007 JLINK_ReadReg(R4)  returns 0x00000000 (0000ms, 0751ms total)
T2B14 006:007 JLINK_ReadReg(R5)  returns 0x00000001 (0000ms, 0751ms total)
T2B14 006:007 JLINK_ReadReg(R6)  returns 0x00000049 (0000ms, 0751ms total)
T2B14 006:007 JLINK_ReadReg(R7)  returns 0x00000048 (0000ms, 0751ms total)
T2B14 006:007 JLINK_ReadReg(R8)  returns 0x00000043 (0000ms, 0751ms total)
T2B14 006:007 JLINK_ReadReg(R9)  returns 0x0000004F (0000ms, 0751ms total)
T2B14 006:007 JLINK_ReadReg(R10)  returns 0x00000052 (0000ms, 0751ms total)
T2B14 006:007 JLINK_ReadReg(R11)  returns 0x00000054 (0000ms, 0751ms total)
T2B14 006:007 JLINK_ReadReg(R12)  returns 0x12121212 (0000ms, 0751ms total)
T2B14 006:007 JLINK_ReadReg(R13 (SP))  returns 0x200009E8 (0000ms, 0751ms total)
T2B14 006:007 JLINK_ReadReg(R14)  returns 0x08000E59 (0000ms, 0751ms total)
T2B14 006:007 JLINK_ReadReg(R15 (PC))  returns 0x08000E82 (0000ms, 0751ms total)
T2B14 006:007 JLINK_ReadReg(XPSR)  returns 0x21000000 (0000ms, 0751ms total)
T2B14 006:007 JLINK_ReadReg(MSP)  returns 0x20002D40 (0000ms, 0751ms total)
T2B14 006:007 JLINK_ReadReg(PSP)  returns 0x200009E8 (0000ms, 0751ms total)
T2B14 006:007 JLINK_ReadReg(CFBP)  returns 0x02000001 (0001ms, 0752ms total)
T0B70 006:175 JLINK_ReadMem (0x20000020, 0x0004 Bytes, ...) -- CPU_ReadMem(64 bytes @ 0x20000000) -- Updating C cache (64 bytes @ 0x20000000) -- Read from C cache (4 bytes @ 0x20000020) - Data: C8 0D 00 20  returns 0x00 (0002ms, 0754ms total)
T0B70 006:177 JLINK_ReadMem (0x20000024, 0x0004 Bytes, ...) -- Read from C cache (4 bytes @ 0x20000024) - Data: 0D 31 00 08  returns 0x00 (0000ms, 0754ms total)
T0B70 006:177 JLINK_ReadMem (0x20000028, 0x0004 Bytes, ...) -- Read from C cache (4 bytes @ 0x20000028) - Data: 64 7C 00 08  returns 0x00 (0000ms, 0754ms total)
T0B70 006:177 JLINK_ReadMem (0x2000002C, 0x0004 Bytes, ...) -- Read from C cache (4 bytes @ 0x2000002C) - Data: 90 1D 00 20  returns 0x00 (0001ms, 0755ms total)
T0B70 006:178 JLINK_ReadMem (0x20000030, 0x0004 Bytes, ...) -- Read from C cache (4 bytes @ 0x20000030) - Data: 00 01 00 00  returns 0x00 (0000ms, 0755ms total)
T0B70 006:178 JLINK_ReadMem (0x20000034, 0x0004 Bytes, ...) -- Read from C cache (4 bytes @ 0x20000034) - Data: 05 00 00 00  returns 0x00 (0000ms, 0755ms total)
T2B14 006:995 JLINK_Step() -- CPU_ReadMem(64 bytes @ 0x08000E80) -- Updating C cache (64 bytes @ 0x08000E80) -- Read from C cache (2 bytes @ 0x08000E82) -- CPU_ReadMem(4 bytes @ 0xE0001004) -- Simulated  returns 0x00 (0004ms, 0759ms total)
T2B14 006:999 JLINK_ReadReg(R15 (PC))  returns 0x08000E84 (0000ms, 0759ms total)
T2B14 006:999 JLINK_ReadReg(XPSR)  returns 0x21000000 (0000ms, 0759ms total)
T2B14 006:999 JLINK_SetBPEx(Addr = 0x08000E48, Type = 0xFFFFFFF2)  returns 0x0000000E (0000ms, 0759ms total)
T2B14 006:999 JLINK_SetBPEx(Addr = 0x08000F36, Type = 0xFFFFFFF2)  returns 0x0000000F (0000ms, 0759ms total)
T2B14 006:999 JLINK_SetBPEx(Addr = 0x08000E82, Type = 0xFFFFFFF2)  returns 0x00000010 (0000ms, 0759ms total)
T2B14 006:999 JLINK_SetBPEx(Addr = 0x08003140, Type = 0xFFFFFFF2)  returns 0x00000011 (0000ms, 0759ms total)
T2B14 006:999 JLINK_Go() -- CPU_WriteMem(4 bytes @ 0xE0002000) -- CPU_WriteMem(4 bytes @ 0xE0002000) -- CPU_WriteMem(4 bytes @ 0xE0002000) -- CPU_WriteMem(4 bytes @ 0xE0002000) -- CPU_WriteMem(4 bytes @ 0xE0001004) (0007ms, 0766ms total)
T2B14 007:107 JLINK_IsHalted()  returns TRUE (0005ms, 0771ms total)
T2B14 007:112 JLINK_Halt()  returns 0x00 (0000ms, 0766ms total)
T2B14 007:112 JLINK_IsHalted()  returns TRUE (0000ms, 0766ms total)
T2B14 007:112 JLINK_IsHalted()  returns TRUE (0000ms, 0766ms total)
T2B14 007:112 JLINK_IsHalted()  returns TRUE (0000ms, 0766ms total)
T2B14 007:112 JLINK_ReadReg(R15 (PC))  returns 0x08000E48 (0000ms, 0766ms total)
T2B14 007:112 JLINK_ReadReg(XPSR)  returns 0x41000000 (0000ms, 0766ms total)
T2B14 007:112 JLINK_ClrBPEx(BPHandle = 0x0000000E)  returns 0x00 (0000ms, 0766ms total)
T2B14 007:112 JLINK_ClrBPEx(BPHandle = 0x0000000F)  returns 0x00 (0000ms, 0766ms total)
T2B14 007:112 JLINK_ClrBPEx(BPHandle = 0x00000010)  returns 0x00 (0000ms, 0766ms total)
T2B14 007:112 JLINK_ClrBPEx(BPHandle = 0x00000011)  returns 0x00 (0000ms, 0766ms total)
T2B14 007:112 JLINK_ReadMemU32(0xE000ED30, 0x0001 Items, ...) -- CPU_ReadMem(4 bytes @ 0xE000ED30) - Data: 03 00 00 00  returns 0x01 (0001ms, 0767ms total)
T2B14 007:113 JLINK_ReadMemU32(0xE0001028, 0x0001 Items, ...) -- CPU_ReadMem(4 bytes @ 0xE0001028) - Data: 00 00 00 00  returns 0x01 (0001ms, 0768ms total)
T2B14 007:114 JLINK_ReadMemU32(0xE0001038, 0x0001 Items, ...) -- CPU_ReadMem(4 bytes @ 0xE0001038) - Data: 00 02 00 00  returns 0x01 (0001ms, 0769ms total)
T2B14 007:115 JLINK_ReadMemU32(0xE0001048, 0x0001 Items, ...) -- CPU_ReadMem(4 bytes @ 0xE0001048) - Data: 00 00 00 00  returns 0x01 (0001ms, 0770ms total)
T2B14 007:116 JLINK_ReadMemU32(0xE0001058, 0x0001 Items, ...) -- CPU_ReadMem(4 bytes @ 0xE0001058) - Data: 00 00 00 00  returns 0x01 (0001ms, 0771ms total)
T2B14 007:117 JLINK_ReadReg(R0)  returns 0x00000001 (0000ms, 0771ms total)
T2B14 007:117 JLINK_ReadReg(R1)  returns 0x20000054 (0000ms, 0771ms total)
T2B14 007:117 JLINK_ReadReg(R2)  returns 0x20000020 (0000ms, 0771ms total)
T2B14 007:117 JLINK_ReadReg(R3)  returns 0x080043B9 (0000ms, 0771ms total)
T2B14 007:117 JLINK_ReadReg(R4)  returns 0x20000054 (0001ms, 0772ms total)
T2B14 007:118 JLINK_ReadReg(R5)  returns 0x00000001 (0000ms, 0772ms total)
T2B14 007:118 JLINK_ReadReg(R6)  returns 0x00000000 (0000ms, 0772ms total)
T2B14 007:118 JLINK_ReadReg(R7)  returns 0x20000020 (0000ms, 0772ms total)
T2B14 007:118 JLINK_ReadReg(R8)  returns 0x00000043 (0000ms, 0772ms total)
T2B14 007:118 JLINK_ReadReg(R9)  returns 0x0000004F (0000ms, 0772ms total)
T2B14 007:118 JLINK_ReadReg(R10)  returns 0x00000052 (0000ms, 0772ms total)
T2B14 007:118 JLINK_ReadReg(R11)  returns 0x00000054 (0000ms, 0772ms total)
T2B14 007:118 JLINK_ReadReg(R12)  returns 0x12121212 (0000ms, 0772ms total)
T2B14 007:118 JLINK_ReadReg(R13 (SP))  returns 0x200009C8 (0000ms, 0772ms total)
T2B14 007:118 JLINK_ReadReg(R14)  returns 0x080018D1 (0000ms, 0772ms total)
T2B14 007:118 JLINK_ReadReg(R15 (PC))  returns 0x08000E48 (0000ms, 0772ms total)
T2B14 007:118 JLINK_ReadReg(XPSR)  returns 0x41000000 (0000ms, 0772ms total)
T2B14 007:118 JLINK_ReadReg(MSP)  returns 0x20002D40 (0000ms, 0772ms total)
T2B14 007:118 JLINK_ReadReg(PSP)  returns 0x200009C8 (0000ms, 0772ms total)
T2B14 007:118 JLINK_ReadReg(CFBP)  returns 0x02000001 (0000ms, 0772ms total)
T0B70 007:123 JLINK_ReadMem (0x08000E48, 0x003C Bytes, ...) -- CPU_ReadMem(128 bytes @ 0x08000E40) -- Updating C cache (128 bytes @ 0x08000E40) -- Read from C cache (60 bytes @ 0x08000E48) - Data: 05 EB 85 01 06 4A 02 EB C1 01 08 69 05 F0 B2 FC ...  returns 0x00 (0003ms, 0775ms total)
T2B14 010:109 JLINK_SetBPEx(Addr = 0x08000F36, Type = 0xFFFFFFF2)  returns 0x00000012 (0001ms, 0776ms total)
T2B14 010:110 JLINK_SetBPEx(Addr = 0x08000E82, Type = 0xFFFFFFF2)  returns 0x00000013 (0000ms, 0776ms total)
T2B14 010:110 JLINK_SetBPEx(Addr = 0x08003140, Type = 0xFFFFFFF2)  returns 0x00000014 (0000ms, 0776ms total)
T2B14 010:110 JLINK_Go() -- CPU_WriteMem(4 bytes @ 0xE0002000) -- CPU_WriteMem(4 bytes @ 0xE0002000) -- CPU_WriteMem(4 bytes @ 0xE0002000) -- CPU_WriteMem(4 bytes @ 0xE0002008) -- CPU_WriteMem(4 bytes @ 0xE000200C) -- CPU_WriteMem(4 bytes @ 0xE0002010) -- CPU_WriteMem(4 bytes @ 0xE0002014) (0007ms, 0783ms total)
T2B14 010:218 JLINK_IsHalted()  returns TRUE (0005ms, 0788ms total)
T2B14 010:223 JLINK_Halt()  returns 0x00 (0000ms, 0783ms total)
T2B14 010:223 JLINK_IsHalted()  returns TRUE (0000ms, 0783ms total)
T2B14 010:223 JLINK_IsHalted()  returns TRUE (0000ms, 0783ms total)
T2B14 010:223 JLINK_IsHalted()  returns TRUE (0000ms, 0783ms total)
T2B14 010:223 JLINK_ReadReg(R15 (PC))  returns 0x08000E82 (0000ms, 0783ms total)
T2B14 010:223 JLINK_ReadReg(XPSR)  returns 0x21000000 (0001ms, 0784ms total)
T2B14 010:224 JLINK_ClrBPEx(BPHandle = 0x00000012)  returns 0x00 (0000ms, 0784ms total)
T2B14 010:224 JLINK_ClrBPEx(BPHandle = 0x00000013)  returns 0x00 (0000ms, 0784ms total)
T2B14 010:224 JLINK_ClrBPEx(BPHandle = 0x00000014)  returns 0x00 (0000ms, 0784ms total)
T2B14 010:224 JLINK_ReadMemU32(0xE000ED30, 0x0001 Items, ...) -- CPU_ReadMem(4 bytes @ 0xE000ED30) - Data: 03 00 00 00  returns 0x01 (0001ms, 0785ms total)
T2B14 010:225 JLINK_ReadMemU32(0xE0001028, 0x0001 Items, ...) -- CPU_ReadMem(4 bytes @ 0xE0001028) - Data: 00 00 00 00  returns 0x01 (0001ms, 0786ms total)
T2B14 010:226 JLINK_ReadMemU32(0xE0001038, 0x0001 Items, ...) -- CPU_ReadMem(4 bytes @ 0xE0001038) - Data: 00 02 00 00  returns 0x01 (0001ms, 0787ms total)
T2B14 010:227 JLINK_ReadMemU32(0xE0001048, 0x0001 Items, ...) -- CPU_ReadMem(4 bytes @ 0xE0001048) - Data: 00 00 00 00  returns 0x01 (0001ms, 0788ms total)
T2B14 010:228 JLINK_ReadMemU32(0xE0001058, 0x0001 Items, ...) -- CPU_ReadMem(4 bytes @ 0xE0001058) - Data: 00 00 00 00  returns 0x01 (0000ms, 0788ms total)
T2B14 010:229 JLINK_ReadReg(R0)  returns 0x00000001 (0000ms, 0788ms total)
T2B14 010:229 JLINK_ReadReg(R1)  returns 0x00000108 (0000ms, 0788ms total)
T2B14 010:229 JLINK_ReadReg(R2)  returns 0x200001AC (0000ms, 0788ms total)
T2B14 010:229 JLINK_ReadReg(R3)  returns 0x20001F9C (0000ms, 0788ms total)
T2B14 010:229 JLINK_ReadReg(R4)  returns 0x00000001 (0000ms, 0788ms total)
T2B14 010:229 JLINK_ReadReg(R5)  returns 0x00000001 (0000ms, 0788ms total)
T2B14 010:229 JLINK_ReadReg(R6)  returns 0x00000000 (0000ms, 0788ms total)
T2B14 010:229 JLINK_ReadReg(R7)  returns 0x20000020 (0000ms, 0788ms total)
T2B14 010:229 JLINK_ReadReg(R8)  returns 0x00000043 (0000ms, 0788ms total)
T2B14 010:229 JLINK_ReadReg(R9)  returns 0x0000004F (0000ms, 0788ms total)
T2B14 010:229 JLINK_ReadReg(R10)  returns 0x00000052 (0001ms, 0789ms total)
T2B14 010:230 JLINK_ReadReg(R11)  returns 0x00000054 (0000ms, 0789ms total)
T2B14 010:230 JLINK_ReadReg(R12)  returns 0x12121212 (0000ms, 0789ms total)
T2B14 010:230 JLINK_ReadReg(R13 (SP))  returns 0x200009E8 (0000ms, 0789ms total)
T2B14 010:230 JLINK_ReadReg(R14)  returns 0x08000E59 (0000ms, 0789ms total)
T2B14 010:230 JLINK_ReadReg(R15 (PC))  returns 0x08000E82 (0000ms, 0789ms total)
T2B14 010:230 JLINK_ReadReg(XPSR)  returns 0x21000000 (0000ms, 0789ms total)
T2B14 010:230 JLINK_ReadReg(MSP)  returns 0x20002D40 (0000ms, 0789ms total)
T2B14 010:230 JLINK_ReadReg(PSP)  returns 0x200009E8 (0000ms, 0789ms total)
T2B14 010:230 JLINK_ReadReg(CFBP)  returns 0x02000001 (0000ms, 0789ms total)
T0B70 010:440 JLINK_ReadMem (0x20000048, 0x0004 Bytes, ...) -- CPU_ReadMem(64 bytes @ 0x20000040) -- Updating C cache (64 bytes @ 0x20000040) -- Read from C cache (4 bytes @ 0x20000048) - Data: 68 0E 00 20  returns 0x00 (0002ms, 0791ms total)
T0B70 010:442 JLINK_ReadMem (0x2000004C, 0x0004 Bytes, ...) -- Read from C cache (4 bytes @ 0x2000004C) - Data: 45 33 00 08  returns 0x00 (0000ms, 0791ms total)
T0B70 010:442 JLINK_ReadMem (0x20000050, 0x0004 Bytes, ...) -- Read from C cache (4 bytes @ 0x20000050) - Data: 7C 7C 00 08  returns 0x00 (0000ms, 0791ms total)
T0B70 010:442 JLINK_ReadMem (0x20000054, 0x0004 Bytes, ...) -- Read from C cache (4 bytes @ 0x20000054) - Data: 98 1E 00 20  returns 0x00 (0000ms, 0791ms total)
T0B70 010:442 JLINK_ReadMem (0x20000058, 0x0004 Bytes, ...) -- Read from C cache (4 bytes @ 0x20000058) - Data: 00 01 00 00  returns 0x00 (0000ms, 0791ms total)
T0B70 010:442 JLINK_ReadMem (0x2000005C, 0x0004 Bytes, ...) -- Read from C cache (4 bytes @ 0x2000005C) - Data: 05 00 00 00  returns 0x00 (0000ms, 0791ms total)
T2B14 010:893 JLINK_Step() -- CPU_ReadMem(64 bytes @ 0x08000E80) -- Updating C cache (64 bytes @ 0x08000E80) -- Read from C cache (2 bytes @ 0x08000E82) -- CPU_ReadMem(4 bytes @ 0xE0001004) -- Simulated  returns 0x00 (0004ms, 0795ms total)
T2B14 010:897 JLINK_ReadReg(R15 (PC))  returns 0x08000E84 (0000ms, 0795ms total)
T2B14 010:897 JLINK_ReadReg(XPSR)  returns 0x21000000 (0000ms, 0795ms total)
T2B14 010:897 JLINK_SetBPEx(Addr = 0x08000F36, Type = 0xFFFFFFF2)  returns 0x00000015 (0000ms, 0795ms total)
T2B14 010:897 JLINK_SetBPEx(Addr = 0x08000E82, Type = 0xFFFFFFF2)  returns 0x00000016 (0000ms, 0795ms total)
T2B14 010:897 JLINK_SetBPEx(Addr = 0x08003140, Type = 0xFFFFFFF2)  returns 0x00000017 (0000ms, 0795ms total)
T2B14 010:897 JLINK_Go() -- CPU_WriteMem(4 bytes @ 0xE0002000) -- CPU_WriteMem(4 bytes @ 0xE0002000) -- CPU_WriteMem(4 bytes @ 0xE0002000) -- CPU_WriteMem(4 bytes @ 0xE0001004) (0006ms, 0801ms total)
T2B14 011:004 JLINK_IsHalted()  returns TRUE (0005ms, 0806ms total)
T2B14 011:009 JLINK_Halt()  returns 0x00 (0000ms, 0801ms total)
T2B14 011:009 JLINK_IsHalted()  returns TRUE (0000ms, 0801ms total)
T2B14 011:009 JLINK_IsHalted()  returns TRUE (0000ms, 0801ms total)
T2B14 011:009 JLINK_IsHalted()  returns TRUE (0001ms, 0802ms total)
T2B14 011:010 JLINK_ReadReg(R15 (PC))  returns 0x08000E82 (0000ms, 0801ms total)
T2B14 011:010 JLINK_ReadReg(XPSR)  returns 0x21000000 (0000ms, 0801ms total)
T2B14 011:010 JLINK_ClrBPEx(BPHandle = 0x00000015)  returns 0x00 (0000ms, 0801ms total)
T2B14 011:010 JLINK_ClrBPEx(BPHandle = 0x00000016)  returns 0x00 (0000ms, 0801ms total)
T2B14 011:010 JLINK_ClrBPEx(BPHandle = 0x00000017)  returns 0x00 (0000ms, 0801ms total)
T2B14 011:010 JLINK_ReadMemU32(0xE000ED30, 0x0001 Items, ...) -- CPU_ReadMem(4 bytes @ 0xE000ED30) - Data: 03 00 00 00  returns 0x01 (0001ms, 0802ms total)
T2B14 011:011 JLINK_ReadMemU32(0xE0001028, 0x0001 Items, ...) -- CPU_ReadMem(4 bytes @ 0xE0001028) - Data: 00 00 00 00  returns 0x01 (0001ms, 0803ms total)
T2B14 011:012 JLINK_ReadMemU32(0xE0001038, 0x0001 Items, ...) -- CPU_ReadMem(4 bytes @ 0xE0001038) - Data: 00 02 00 00  returns 0x01 (0001ms, 0804ms total)
T2B14 011:013 JLINK_ReadMemU32(0xE0001048, 0x0001 Items, ...) -- CPU_ReadMem(4 bytes @ 0xE0001048) - Data: 00 00 00 00  returns 0x01 (0001ms, 0805ms total)
T2B14 011:014 JLINK_ReadMemU32(0xE0001058, 0x0001 Items, ...) -- CPU_ReadMem(4 bytes @ 0xE0001058) - Data: 00 00 00 00  returns 0x01 (0001ms, 0806ms total)
T2B14 011:015 JLINK_ReadReg(R0)  returns 0x00000001 (0000ms, 0806ms total)
T2B14 011:015 JLINK_ReadReg(R1)  returns 0x00000108 (0000ms, 0806ms total)
T2B14 011:015 JLINK_ReadReg(R2)  returns 0x200001AC (0000ms, 0806ms total)
T2B14 011:015 JLINK_ReadReg(R3)  returns 0x200020A4 (0000ms, 0806ms total)
T2B14 011:015 JLINK_ReadReg(R4)  returns 0x00000002 (0000ms, 0806ms total)
T2B14 011:015 JLINK_ReadReg(R5)  returns 0x00000001 (0000ms, 0806ms total)
T2B14 011:015 JLINK_ReadReg(R6)  returns 0x00000005 (0000ms, 0806ms total)
T2B14 011:016 JLINK_ReadReg(R7)  returns 0x20000020 (0000ms, 0806ms total)
T2B14 011:016 JLINK_ReadReg(R8)  returns 0x00000043 (0000ms, 0806ms total)
T2B14 011:016 JLINK_ReadReg(R9)  returns 0x0000004F (0000ms, 0806ms total)
T2B14 011:016 JLINK_ReadReg(R10)  returns 0x00000052 (0000ms, 0806ms total)
T2B14 011:016 JLINK_ReadReg(R11)  returns 0x00000054 (0000ms, 0806ms total)
T2B14 011:016 JLINK_ReadReg(R12)  returns 0x12121212 (0000ms, 0806ms total)
T2B14 011:016 JLINK_ReadReg(R13 (SP))  returns 0x200009E8 (0000ms, 0806ms total)
T2B14 011:016 JLINK_ReadReg(R14)  returns 0x08000E59 (0000ms, 0806ms total)
T2B14 011:016 JLINK_ReadReg(R15 (PC))  returns 0x08000E82 (0000ms, 0806ms total)
T2B14 011:016 JLINK_ReadReg(XPSR)  returns 0x21000000 (0000ms, 0806ms total)
T2B14 011:016 JLINK_ReadReg(MSP)  returns 0x20002D40 (0000ms, 0806ms total)
T2B14 011:016 JLINK_ReadReg(PSP)  returns 0x200009E8 (0000ms, 0806ms total)
T2B14 011:016 JLINK_ReadReg(CFBP)  returns 0x02000001 (0000ms, 0806ms total)
T2B14 011:734 JLINK_Step() -- CPU_ReadMem(64 bytes @ 0x08000E80) -- Updating C cache (64 bytes @ 0x08000E80) -- Read from C cache (2 bytes @ 0x08000E82) -- CPU_ReadMem(4 bytes @ 0xE0001004) -- Simulated  returns 0x00 (0004ms, 0810ms total)
T2B14 011:738 JLINK_ReadReg(R15 (PC))  returns 0x08000E84 (0000ms, 0810ms total)
T2B14 011:738 JLINK_ReadReg(XPSR)  returns 0x21000000 (0000ms, 0810ms total)
T2B14 011:738 JLINK_SetBPEx(Addr = 0x08000F36, Type = 0xFFFFFFF2)  returns 0x00000018 (0001ms, 0811ms total)
T2B14 011:739 JLINK_SetBPEx(Addr = 0x08000E82, Type = 0xFFFFFFF2)  returns 0x00000019 (0000ms, 0811ms total)
T2B14 011:739 JLINK_SetBPEx(Addr = 0x08003140, Type = 0xFFFFFFF2)  returns 0x0000001A (0000ms, 0811ms total)
T2B14 011:739 JLINK_Go() -- CPU_WriteMem(4 bytes @ 0xE0002000) -- CPU_WriteMem(4 bytes @ 0xE0002000) -- CPU_WriteMem(4 bytes @ 0xE0002000) -- CPU_WriteMem(4 bytes @ 0xE0001004) (0006ms, 0817ms total)
T2B14 011:845 JLINK_IsHalted()  returns TRUE (0005ms, 0822ms total)
T2B14 011:850 JLINK_Halt()  returns 0x00 (0000ms, 0817ms total)
T2B14 011:850 JLINK_IsHalted()  returns TRUE (0000ms, 0817ms total)
T2B14 011:850 JLINK_IsHalted()  returns TRUE (0000ms, 0817ms total)
T2B14 011:850 JLINK_IsHalted()  returns TRUE (0000ms, 0817ms total)
T2B14 011:850 JLINK_ReadReg(R15 (PC))  returns 0x08000E82 (0000ms, 0817ms total)
T2B14 011:851 JLINK_ReadReg(XPSR)  returns 0x21000000 (0000ms, 0818ms total)
T2B14 011:851 JLINK_ClrBPEx(BPHandle = 0x00000018)  returns 0x00 (0000ms, 0818ms total)
T2B14 011:851 JLINK_ClrBPEx(BPHandle = 0x00000019)  returns 0x00 (0000ms, 0818ms total)
T2B14 011:851 JLINK_ClrBPEx(BPHandle = 0x0000001A)  returns 0x00 (0000ms, 0818ms total)
T2B14 011:851 JLINK_ReadMemU32(0xE000ED30, 0x0001 Items, ...) -- CPU_ReadMem(4 bytes @ 0xE000ED30) - Data: 03 00 00 00  returns 0x01 (0001ms, 0819ms total)
T2B14 011:852 JLINK_ReadMemU32(0xE0001028, 0x0001 Items, ...) -- CPU_ReadMem(4 bytes @ 0xE0001028) - Data: 00 00 00 00  returns 0x01 (0001ms, 0820ms total)
T2B14 011:853 JLINK_ReadMemU32(0xE0001038, 0x0001 Items, ...) -- CPU_ReadMem(4 bytes @ 0xE0001038) - Data: 00 02 00 00  returns 0x01 (0001ms, 0821ms total)
T2B14 011:854 JLINK_ReadMemU32(0xE0001048, 0x0001 Items, ...) -- CPU_ReadMem(4 bytes @ 0xE0001048) - Data: 00 00 00 00  returns 0x01 (0001ms, 0822ms total)
T2B14 011:855 JLINK_ReadMemU32(0xE0001058, 0x0001 Items, ...) -- CPU_ReadMem(4 bytes @ 0xE0001058) - Data: 00 00 00 00  returns 0x01 (0001ms, 0823ms total)
T2B14 011:856 JLINK_ReadReg(R0)  returns 0x00000001 (0000ms, 0823ms total)
T2B14 011:856 JLINK_ReadReg(R1)  returns 0x00000108 (0000ms, 0823ms total)
T2B14 011:856 JLINK_ReadReg(R2)  returns 0x200001AC (0000ms, 0823ms total)
T2B14 011:856 JLINK_ReadReg(R3)  returns 0x200021AC (0000ms, 0823ms total)
T2B14 011:856 JLINK_ReadReg(R4)  returns 0x00000003 (0001ms, 0824ms total)
T2B14 011:857 JLINK_ReadReg(R5)  returns 0x00000001 (0000ms, 0824ms total)
T2B14 011:857 JLINK_ReadReg(R6)  returns 0x0000000A (0000ms, 0824ms total)
T2B14 011:857 JLINK_ReadReg(R7)  returns 0x20000020 (0000ms, 0824ms total)
T2B14 011:857 JLINK_ReadReg(R8)  returns 0x00000043 (0000ms, 0824ms total)
T2B14 011:857 JLINK_ReadReg(R9)  returns 0x0000004F (0000ms, 0824ms total)
T2B14 011:857 JLINK_ReadReg(R10)  returns 0x00000052 (0000ms, 0824ms total)
T2B14 011:857 JLINK_ReadReg(R11)  returns 0x00000054 (0000ms, 0824ms total)
T2B14 011:857 JLINK_ReadReg(R12)  returns 0x12121212 (0000ms, 0824ms total)
T2B14 011:857 JLINK_ReadReg(R13 (SP))  returns 0x200009E8 (0000ms, 0824ms total)
T2B14 011:857 JLINK_ReadReg(R14)  returns 0x08000E59 (0000ms, 0824ms total)
T2B14 011:857 JLINK_ReadReg(R15 (PC))  returns 0x08000E82 (0000ms, 0824ms total)
T2B14 011:857 JLINK_ReadReg(XPSR)  returns 0x21000000 (0000ms, 0824ms total)
T2B14 011:857 JLINK_ReadReg(MSP)  returns 0x20002D40 (0001ms, 0825ms total)
T2B14 011:858 JLINK_ReadReg(PSP)  returns 0x200009E8 (0000ms, 0825ms total)
T2B14 011:858 JLINK_ReadReg(CFBP)  returns 0x02000001 (0000ms, 0825ms total)
T2B14 012:388 JLINK_Step() -- CPU_ReadMem(64 bytes @ 0x08000E80) -- Updating C cache (64 bytes @ 0x08000E80) -- Read from C cache (2 bytes @ 0x08000E82) -- CPU_ReadMem(4 bytes @ 0xE0001004) -- Simulated  returns 0x00 (0004ms, 0829ms total)
T2B14 012:392 JLINK_ReadReg(R15 (PC))  returns 0x08000E84 (0000ms, 0829ms total)
T2B14 012:392 JLINK_ReadReg(XPSR)  returns 0x21000000 (0000ms, 0829ms total)
T2B14 012:392 JLINK_SetBPEx(Addr = 0x08000F36, Type = 0xFFFFFFF2)  returns 0x0000001B (0000ms, 0829ms total)
T2B14 012:392 JLINK_SetBPEx(Addr = 0x08000E82, Type = 0xFFFFFFF2)  returns 0x0000001C (0001ms, 0830ms total)
T2B14 012:393 JLINK_SetBPEx(Addr = 0x08003140, Type = 0xFFFFFFF2)  returns 0x0000001D (0000ms, 0830ms total)
T2B14 012:393 JLINK_Go() -- CPU_WriteMem(4 bytes @ 0xE0002000) -- CPU_WriteMem(4 bytes @ 0xE0002000) -- CPU_WriteMem(4 bytes @ 0xE0002000) -- CPU_WriteMem(4 bytes @ 0xE0001004) (0005ms, 0835ms total)
T2B14 012:499 JLINK_IsHalted()  returns TRUE (0005ms, 0840ms total)
T2B14 012:504 JLINK_Halt()  returns 0x00 (0000ms, 0835ms total)
T2B14 012:504 JLINK_IsHalted()  returns TRUE (0000ms, 0835ms total)
T2B14 012:505 JLINK_IsHalted()  returns TRUE (0000ms, 0835ms total)
T2B14 012:505 JLINK_IsHalted()  returns TRUE (0000ms, 0835ms total)
T2B14 012:505 JLINK_ReadReg(R15 (PC))  returns 0x08000E82 (0000ms, 0835ms total)
T2B14 012:505 JLINK_ReadReg(XPSR)  returns 0x21000000 (0000ms, 0835ms total)
T2B14 012:505 JLINK_ClrBPEx(BPHandle = 0x0000001B)  returns 0x00 (0000ms, 0835ms total)
T2B14 012:505 JLINK_ClrBPEx(BPHandle = 0x0000001C)  returns 0x00 (0000ms, 0835ms total)
T2B14 012:505 JLINK_ClrBPEx(BPHandle = 0x0000001D)  returns 0x00 (0000ms, 0835ms total)
T2B14 012:505 JLINK_ReadMemU32(0xE000ED30, 0x0001 Items, ...) -- CPU_ReadMem(4 bytes @ 0xE000ED30) - Data: 03 00 00 00  returns 0x01 (0001ms, 0836ms total)
T2B14 012:506 JLINK_ReadMemU32(0xE0001028, 0x0001 Items, ...) -- CPU_ReadMem(4 bytes @ 0xE0001028) - Data: 00 00 00 00  returns 0x01 (0001ms, 0837ms total)
T2B14 012:507 JLINK_ReadMemU32(0xE0001038, 0x0001 Items, ...) -- CPU_ReadMem(4 bytes @ 0xE0001038) - Data: 00 02 00 00  returns 0x01 (0001ms, 0838ms total)
T2B14 012:508 JLINK_ReadMemU32(0xE0001048, 0x0001 Items, ...) -- CPU_ReadMem(4 bytes @ 0xE0001048) - Data: 00 00 00 00  returns 0x01 (0001ms, 0839ms total)
T2B14 012:509 JLINK_ReadMemU32(0xE0001058, 0x0001 Items, ...) -- CPU_ReadMem(4 bytes @ 0xE0001058) - Data: 00 00 00 00  returns 0x01 (0001ms, 0840ms total)
T2B14 012:510 JLINK_ReadReg(R0)  returns 0x00000001 (0001ms, 0841ms total)
T2B14 012:511 JLINK_ReadReg(R1)  returns 0x00000108 (0000ms, 0841ms total)
T2B14 012:511 JLINK_ReadReg(R2)  returns 0x200001AC (0000ms, 0841ms total)
T2B14 012:511 JLINK_ReadReg(R3)  returns 0x200022B4 (0000ms, 0841ms total)
T2B14 012:511 JLINK_ReadReg(R4)  returns 0x00000004 (0000ms, 0841ms total)
T2B14 012:511 JLINK_ReadReg(R5)  returns 0x00000001 (0000ms, 0841ms total)
T2B14 012:511 JLINK_ReadReg(R6)  returns 0x0000000F (0000ms, 0841ms total)
T2B14 012:511 JLINK_ReadReg(R7)  returns 0x20000020 (0000ms, 0841ms total)
T2B14 012:511 JLINK_ReadReg(R8)  returns 0x00000043 (0000ms, 0841ms total)
T2B14 012:511 JLINK_ReadReg(R9)  returns 0x0000004F (0000ms, 0841ms total)
T2B14 012:511 JLINK_ReadReg(R10)  returns 0x00000052 (0000ms, 0841ms total)
T2B14 012:511 JLINK_ReadReg(R11)  returns 0x00000054 (0000ms, 0841ms total)
T2B14 012:511 JLINK_ReadReg(R12)  returns 0x12121212 (0000ms, 0841ms total)
T2B14 012:511 JLINK_ReadReg(R13 (SP))  returns 0x200009E8 (0000ms, 0841ms total)
T2B14 012:511 JLINK_ReadReg(R14)  returns 0x08000E59 (0000ms, 0841ms total)
T2B14 012:511 JLINK_ReadReg(R15 (PC))  returns 0x08000E82 (0000ms, 0841ms total)
T2B14 012:511 JLINK_ReadReg(XPSR)  returns 0x21000000 (0000ms, 0841ms total)
T2B14 012:511 JLINK_ReadReg(MSP)  returns 0x20002D40 (0000ms, 0841ms total)
T2B14 012:511 JLINK_ReadReg(PSP)  returns 0x200009E8 (0000ms, 0841ms total)
T2B14 012:511 JLINK_ReadReg(CFBP)  returns 0x02000001 (0000ms, 0841ms total)
T2B14 012:901 JLINK_Step() -- CPU_ReadMem(64 bytes @ 0x08000E80) -- Updating C cache (64 bytes @ 0x08000E80) -- Read from C cache (2 bytes @ 0x08000E82) -- CPU_ReadMem(4 bytes @ 0xE0001004) -- Simulated  returns 0x00 (0003ms, 0845ms total)
T2B14 012:904 JLINK_ReadReg(R15 (PC))  returns 0x08000E84 (0000ms, 0845ms total)
T2B14 012:904 JLINK_ReadReg(XPSR)  returns 0x21000000 (0000ms, 0845ms total)
T2B14 012:904 JLINK_SetBPEx(Addr = 0x08000F36, Type = 0xFFFFFFF2)  returns 0x0000001E (0000ms, 0845ms total)
T2B14 012:904 JLINK_SetBPEx(Addr = 0x08000E82, Type = 0xFFFFFFF2)  returns 0x0000001F (0000ms, 0845ms total)
T2B14 012:904 JLINK_SetBPEx(Addr = 0x08003140, Type = 0xFFFFFFF2)  returns 0x00000020 (0000ms, 0845ms total)
T2B14 012:904 JLINK_Go() -- CPU_WriteMem(4 bytes @ 0xE0002000) -- CPU_WriteMem(4 bytes @ 0xE0002000) -- CPU_WriteMem(4 bytes @ 0xE0002000) -- CPU_WriteMem(4 bytes @ 0xE0001004) (0006ms, 0851ms total)
T2B14 013:011 JLINK_IsHalted()  returns TRUE (0005ms, 0856ms total)
T2B14 013:016 JLINK_Halt()  returns 0x00 (0000ms, 0851ms total)
T2B14 013:016 JLINK_IsHalted()  returns TRUE (0000ms, 0851ms total)
T2B14 013:016 JLINK_IsHalted()  returns TRUE (0000ms, 0851ms total)
T2B14 013:016 JLINK_IsHalted()  returns TRUE (0000ms, 0851ms total)
T2B14 013:016 JLINK_ReadReg(R15 (PC))  returns 0x08000E82 (0000ms, 0851ms total)
T2B14 013:016 JLINK_ReadReg(XPSR)  returns 0x21000000 (0000ms, 0851ms total)
T2B14 013:017 JLINK_ClrBPEx(BPHandle = 0x0000001E)  returns 0x00 (0000ms, 0852ms total)
T2B14 013:017 JLINK_ClrBPEx(BPHandle = 0x0000001F)  returns 0x00 (0000ms, 0852ms total)
T2B14 013:017 JLINK_ClrBPEx(BPHandle = 0x00000020)  returns 0x00 (0000ms, 0852ms total)
T2B14 013:017 JLINK_ReadMemU32(0xE000ED30, 0x0001 Items, ...) -- CPU_ReadMem(4 bytes @ 0xE000ED30) - Data: 03 00 00 00  returns 0x01 (0001ms, 0853ms total)
T2B14 013:018 JLINK_ReadMemU32(0xE0001028, 0x0001 Items, ...) -- CPU_ReadMem(4 bytes @ 0xE0001028) - Data: 00 00 00 00  returns 0x01 (0001ms, 0854ms total)
T2B14 013:019 JLINK_ReadMemU32(0xE0001038, 0x0001 Items, ...) -- CPU_ReadMem(4 bytes @ 0xE0001038) - Data: 00 02 00 00  returns 0x01 (0001ms, 0855ms total)
T2B14 013:020 JLINK_ReadMemU32(0xE0001048, 0x0001 Items, ...) -- CPU_ReadMem(4 bytes @ 0xE0001048) - Data: 00 00 00 00  returns 0x01 (0001ms, 0856ms total)
T2B14 013:021 JLINK_ReadMemU32(0xE0001058, 0x0001 Items, ...) -- CPU_ReadMem(4 bytes @ 0xE0001058) - Data: 00 00 00 00  returns 0x01 (0001ms, 0857ms total)
T2B14 013:022 JLINK_ReadReg(R0)  returns 0x00000001 (0000ms, 0857ms total)
T2B14 013:022 JLINK_ReadReg(R1)  returns 0x00000208 (0000ms, 0857ms total)
T2B14 013:022 JLINK_ReadReg(R2)  returns 0x200001AC (0000ms, 0857ms total)
T2B14 013:022 JLINK_ReadReg(R3)  returns 0x200024BC (0001ms, 0858ms total)
T2B14 013:023 JLINK_ReadReg(R4)  returns 0x00000005 (0000ms, 0858ms total)
T2B14 013:023 JLINK_ReadReg(R5)  returns 0x00000001 (0000ms, 0858ms total)
T2B14 013:023 JLINK_ReadReg(R6)  returns 0x00000014 (0000ms, 0858ms total)
T2B14 013:023 JLINK_ReadReg(R7)  returns 0x20000020 (0000ms, 0858ms total)
T2B14 013:023 JLINK_ReadReg(R8)  returns 0x00000043 (0000ms, 0858ms total)
T2B14 013:023 JLINK_ReadReg(R9)  returns 0x0000004F (0000ms, 0858ms total)
T2B14 013:023 JLINK_ReadReg(R10)  returns 0x00000052 (0000ms, 0858ms total)
T2B14 013:023 JLINK_ReadReg(R11)  returns 0x00000054 (0000ms, 0858ms total)
T2B14 013:023 JLINK_ReadReg(R12)  returns 0x12121212 (0000ms, 0858ms total)
T2B14 013:023 JLINK_ReadReg(R13 (SP))  returns 0x200009E8 (0000ms, 0858ms total)
T2B14 013:023 JLINK_ReadReg(R14)  returns 0x08000E59 (0000ms, 0858ms total)
T2B14 013:023 JLINK_ReadReg(R15 (PC))  returns 0x08000E82 (0000ms, 0858ms total)
T2B14 013:023 JLINK_ReadReg(XPSR)  returns 0x21000000 (0000ms, 0858ms total)
T2B14 013:023 JLINK_ReadReg(MSP)  returns 0x20002D40 (0000ms, 0858ms total)
T2B14 013:023 JLINK_ReadReg(PSP)  returns 0x200009E8 (0000ms, 0858ms total)
T2B14 013:023 JLINK_ReadReg(CFBP)  returns 0x02000001 (0000ms, 0858ms total)
T2B14 013:631 JLINK_Step() -- CPU_ReadMem(64 bytes @ 0x08000E80) -- Updating C cache (64 bytes @ 0x08000E80) -- Read from C cache (2 bytes @ 0x08000E82) -- CPU_ReadMem(4 bytes @ 0xE0001004) -- Simulated  returns 0x00 (0004ms, 0862ms total)
T2B14 013:635 JLINK_ReadReg(R15 (PC))  returns 0x08000E84 (0000ms, 0862ms total)
T2B14 013:635 JLINK_ReadReg(XPSR)  returns 0x21000000 (0000ms, 0862ms total)
T2B14 013:635 JLINK_SetBPEx(Addr = 0x08000F36, Type = 0xFFFFFFF2)  returns 0x00000021 (0000ms, 0862ms total)
